%Frequency (Hz)	S1,1 Mag 	S1,1 u(Mag) 	S1,1 Phase (°)	S1,1 u(Phase) (°)	S2,1 Mag 	S2,1 u(Mag) 	S2,1 Phase (°)	S2,1 u(Phase) (°)	S1,2 Mag 	S1,2 u(Mag) 	S1,2 Phase (°)	S1,2 u(Phase) (°)	S2,2 Mag 	S2,2 u(Mag) 	S2,2 Phase (°)	S2,2 u(Phase) (°)
300000.000000000	0.001939290	0.002133078	91.805793538	63.220304072	0.999324728	0.001840018	-0.051869928	0.083410174	1.000428740	0.002086595	-0.123630762	0.103151240	0.001392751	0.002114699	81.955091990	87.128332559
14466166.666666700	0.073350004	0.002098464	-97.309887081	1.637640107	0.997009223	0.002434505	-6.842291548	0.129875073	0.996590270	0.002227546	-6.856193926	0.115591600	0.073338157	0.002095201	-97.281282811	1.635302792
28632333.333333300	0.142675095	0.002130066	-104.120013545	0.851177801	0.988276324	0.002750848	-13.429094397	0.154655643	0.987751759	0.002749359	-13.444412072	0.154653908	0.142724623	0.002126826	-104.100935210	0.849631495
42798500.000000000	0.208645582	0.002172411	-110.504711276	0.592026963	0.974978869	0.002750268	-19.858249573	0.156935540	0.974450711	0.002748683	-19.871000692	0.156929809	0.208775527	0.002169114	-110.542673487	0.590711286
56964666.666666700	0.269788484	0.002234855	-116.901562490	0.468737804	0.958130546	0.002728816	-26.075237364	0.158386341	0.957634301	0.002727275	-26.088179747	0.158378485	0.269888974	0.002217302	-117.031189673	0.464172213
71130833.333333300	0.325230854	0.002280552	-123.027861487	0.394541071	0.939074513	0.002705628	-32.062375426	0.160222162	0.938602952	0.002704124	-32.074484957	0.160213093	0.325293323	0.002277116	-123.273061503	0.393821803
85297000.000000000	0.375145097	0.002324669	-128.724162965	0.346334459	0.918619596	0.002732081	-37.810517014	0.166204953	0.918168909	0.002730545	-37.822727427	0.166192350	0.375244383	0.002359262	-129.096290936	0.352721740
99463166.666666700	0.418929996	0.002383133	-134.211963592	0.317104629	0.897923406	0.002649807	-43.285864762	0.164609750	0.897467599	0.002742569	-43.299743223	0.170929656	0.419048299	0.002423395	-134.683243698	0.322834929
113629333.333333000	0.456577878	0.002480022	-139.552554872	0.302763850	0.877781347	0.002660141	-48.528468977	0.169201965	0.877356786	0.002658566	-48.538182368	0.169182783	0.456640788	0.002422324	-140.083008880	0.293849891
127795500.000000000	0.489625188	0.002497788	-144.611804743	0.282481638	0.858448878	0.002640628	-53.568159151	0.171958676	0.858050626	0.002639146	-53.577146760	0.171940867	0.489628104	0.002494901	-145.188977045	0.282101287
141961666.666667000	0.518127522	0.002542441	-149.401582419	0.271216187	0.840582774	0.002662586	-58.398729015	0.178002227	0.840179799	0.002661073	-58.406056344	0.177986057	0.518077157	0.002542706	-150.025617928	0.271289534
156127833.333333000	0.541116087	0.002576893	-154.013496979	0.262466848	0.824998640	0.002622847	-63.033536958	0.178461501	0.824602015	0.002621293	-63.039593409	0.178440489	0.541007248	0.002575967	-154.675069295	0.262416236
170294000.000000000	0.559803360	0.002652055	-158.508093047	0.262201991	0.811231156	0.002562450	-67.532241246	0.176844149	0.810850050	0.002560844	-67.537315400	0.176815031	0.559661955	0.002547495	-159.204650436	0.248992321
184460166.666667000	0.575689416	0.002636219	-162.848031840	0.251951979	0.799080357	0.002561848	-71.894536361	0.179905242	0.798705426	0.002560226	-71.899768162	0.179874554	0.575554513	0.002639869	-163.602900109	0.252493431
198626333.333333000	0.587721983	0.002658918	-167.017829747	0.249125164	0.789506894	0.002588442	-76.150589438	0.184909093	0.789127768	0.002621474	-76.158394374	0.187452036	0.587570023	0.002652874	-167.848415855	0.248548922
212792500.000000000	0.595364078	0.002657705	-171.084552297	0.245124825	0.782709414	0.002543635	-80.337500344	0.182769303	0.782323355	0.002542053	-80.340339281	0.182744801	0.595273059	0.002653825	-171.961957083	0.244763284
226958666.666667000	0.600182548	0.002664613	-175.180312145	0.243919785	0.777716237	0.002508925	-84.476168352	0.181169236	0.777333060	0.002507366	-84.472906289	0.181144978	0.600235148	0.002657539	-176.069803878	0.243063182
241124833.333333000	0.602701651	0.002676127	-179.252087250	0.244179089	0.774667052	0.002525056	-88.551914300	0.183527850	0.774274873	0.002523431	-88.557542257	0.183501708	0.602826944	0.002673470	179.843916867	0.243826071
255291000.000000000	0.601772410	0.002659129	176.795722748	0.242825638	0.774423532	0.002537121	-92.651763186	0.184783189	0.774022978	0.002535461	-92.654418695	0.184756967	0.601857417	0.002658783	175.868663062	0.242752059
269457166.666667000	0.597127484	0.002639881	172.855868114	0.242798922	0.776604728	0.002509875	-96.789652156	0.181852916	0.776199927	0.002508248	-96.793765321	0.181829123	0.597161163	0.002635792	171.901430392	0.242294578
283623333.333333000	0.589580239	0.002634054	168.778347081	0.246226879	0.780653058	0.002507081	-100.952585811	0.180900172	0.780251920	0.002500197	-100.953632077	0.180213975	0.589608363	0.002630911	167.783303783	0.245296890
297789500.000000000	0.579283685	0.002627231	164.704269907	0.250353912	0.786812224	0.002533114	-105.168012566	0.181519269	0.786429900	0.002531452	-105.174551789	0.181487536	0.579210993	0.002629537	163.615400005	0.250704758
311955666.666667000	0.565420205	0.002595279	160.710205048	0.253676071	0.794988201	0.002552609	-109.518780460	0.181272978	0.794580210	0.002550827	-109.528388457	0.181238346	0.565184611	0.002599869	159.473968220	0.254381750
326121833.333333000	0.547421865	0.002558516	156.586406238	0.258695837	0.805050547	0.002547068	-114.003428418	0.178401549	0.804620763	0.002545309	-114.001656246	0.178372620	0.547095179	0.002559425	155.206034893	0.258998243
340288000.000000000	0.525618792	0.002519134	152.253418519	0.265912041	0.816735999	0.002552125	-118.600017703	0.176165142	0.816318972	0.002550473	-118.607724401	0.176140256	0.525328931	0.002519356	150.733457623	0.266130751
354454166.666667000	0.500613494	0.002468451	147.915541068	0.274097342	0.829577937	0.002575529	-123.352099777	0.175270098	0.829168853	0.002573890	-123.343022044	0.175244288	0.500293231	0.002470240	146.260274127	0.274577696
368620333.333333000	0.471348192	0.002414846	143.572359578	0.285541057	0.843400516	0.002590649	-128.284505584	0.173535956	0.842973925	0.002589019	-128.287916832	0.173513844	0.470886636	0.002413892	141.758096592	0.285776746
382786500.000000000	0.436422637	0.002362783	139.073274462	0.303191375	0.858158662	0.002581831	-133.413069987	0.169612034	0.857744017	0.002554871	-133.407145806	0.167906622	0.435878119	0.002363471	137.104019502	0.303301435
396952666.666667000	0.396947117	0.002298948	134.477028179	0.325357999	0.873278062	0.002583683	-138.726050146	0.166965431	0.872870005	0.002582221	-138.728669124	0.166948507	0.396413166	0.002296242	132.327814833	0.325444445
411118833.333333000	0.353837903	0.002224691	129.993898331	0.354293216	0.887792428	0.002599342	-144.218889370	0.165492100	0.887356503	0.002597860	-144.227912212	0.165478498	0.353225907	0.002221803	127.587674849	0.354435134
425285000.000000000	0.305482654	0.002153115	125.744033273	0.398692474	0.901334706	0.002603470	-149.916038786	0.163428367	0.900892989	0.002602159	-149.918436045	0.163426222	0.304661309	0.002143348	122.975436100	0.397832189
439451166.666667000	0.252080546	0.002084244	121.922357550	0.469614154	0.913272729	0.002587113	-155.807167383	0.160212704	0.912826241	0.002585895	-155.799864064	0.160215520	0.251091501	0.002075402	118.694383997	0.469266112
453617333.333333000	0.196421729	0.002018846	119.006385893	0.585443502	0.922694016	0.002578517	-161.846111416	0.158143955	0.922249170	0.002577222	-161.834074296	0.158140678	0.195211202	0.002009993	115.188626598	0.586709500
467783500.000000000	0.139217692	0.001959923	118.594404972	0.804070594	0.929098021	0.002577303	-167.981505248	0.157211676	0.928649705	0.002575960	-167.979990901	0.157205470	0.137404898	0.001953339	113.852447015	0.812084209
481949666.666667000	0.082485941	0.001930461	126.893412596	1.338910821	0.932062850	0.002568740	-174.214697261	0.156350852	0.931620144	0.002567491	-174.212484734	0.156349091	0.079012787	0.001919290	120.410699898	1.390104173
496115833.333333000	0.045342864	0.001913778	170.733393368	2.416728063	0.931361919	0.002553478	179.520351675	0.155621383	0.930926206	0.002552287	179.523890459	0.155621623	0.038062492	0.001906504	166.967047877	2.868359668
510282000.000000000	0.072194999	0.001918270	-136.237745976	1.521733326	0.926945690	0.002548779	173.281966563	0.156300066	0.926520686	0.002547631	173.282532665	0.156301364	0.067548139	0.001909270	-133.303280214	1.618674309
524448166.666667000	0.126734300	0.001939849	-124.784284681	0.875065711	0.918945019	0.002534799	167.104775531	0.156905410	0.918507396	0.002533630	167.108520013	0.156907779	0.123831417	0.001932429	-123.346873647	0.892112044
538614333.333333000	0.184064361	0.001978338	-124.203659755	0.612917441	0.907926264	0.002537060	161.039167595	0.159265305	0.907483689	0.002535786	161.043579865	0.159262967	0.181693363	0.001974307	-123.603136604	0.619810907
552780500.000000000	0.238196083	0.002032768	-126.477296178	0.485765335	0.894638819	0.002536806	155.126308280	0.161911312	0.894193252	0.002535450	155.129882571	0.161905423	0.235993064	0.002030653	-126.366474903	0.489923686
566946666.666667000	0.288251665	0.002102810	-129.992305730	0.414636591	0.879405615	0.002518043	149.382811009	0.163573989	0.878980544	0.002516795	149.388864044	0.163571914	0.286110612	0.002095018	-130.247628402	0.416095650
581112833.333333000	0.334662595	0.002166276	-134.164237532	0.367276335	0.862860493	0.002504660	143.838570889	0.166002341	0.862422170	0.002503355	143.844304567	0.166000247	0.332506567	0.002156137	-134.736313977	0.367769808
595279000.000000000	0.376866885	0.002226514	-138.378335741	0.334485717	0.846099139	0.002514750	138.467015121	0.170471894	0.845668641	0.002513252	138.473724565	0.170457239	0.374655715	0.002221670	-139.245625521	0.335870088
609445166.666667000	0.414004119	0.002278277	-142.498726086	0.311185097	0.829609681	0.002499931	133.288358944	0.173005150	0.829189081	0.002498335	133.294455716	0.172982010	0.411798754	0.002282186	-143.635170638	0.313577737
623611333.333333000	0.446142654	0.002322403	-146.739118001	0.293796457	0.813582711	0.002459818	128.312608889	0.173450854	0.813171965	0.002458295	128.318184649	0.173431640	0.443983712	0.002323548	-148.100023746	0.295477795
637777500.000000000	0.474509830	0.002353299	-150.984713485	0.279508841	0.798433684	0.002415124	123.507499347	0.173632678	0.798049301	0.002415032	123.512712168	0.173752948	0.472275185	0.002375988	-152.520276877	0.283700432
651943666.666667000	0.499511494	0.002402809	-155.006455367	0.271181875	0.784499374	0.002429718	118.826166869	0.178144105	0.784112929	0.002428149	118.835571603	0.178117223	0.497024063	0.002404728	-156.694462011	0.272943240
666109833.333333000	0.519849698	0.002499718	-158.898994408	0.271656338	0.772451810	0.002410775	114.294545058	0.179609596	0.772061115	0.002384827	114.304855433	0.178185431	0.517142805	0.002463695	-160.742160433	0.269429197
680276000.000000000	0.535424786	0.002496942	-162.831665143	0.263843588	0.762275480	0.002393457	109.892799525	0.180916728	0.761917006	0.002392125	109.902822865	0.180901301	0.532506328	0.002487555	-164.832569015	0.264230315
694442166.666667000	0.548586412	0.002512577	-166.711158968	0.259091067	0.753451816	0.002383857	105.572370387	0.182541492	0.753093852	0.002382481	105.584412798	0.182523128	0.545343601	0.002503746	-168.873983510	0.259691128
708608333.333333000	0.559577556	0.002533470	-170.442378341	0.256400298	0.746175423	0.002394836	101.305752328	0.185674187	0.745805261	0.002393276	101.316770760	0.185645690	0.555969258	0.002530321	-172.797747759	0.257856789
722774500.000000000	0.566264255	0.002546164	-174.090793199	0.254898538	0.741149871	0.002381320	97.088760685	0.185946746	0.740779141	0.002379768	97.100117170	0.185919521	0.562473226	0.002541116	-176.671829198	0.256186690
736940666.666667000	0.569338230	0.002527692	-177.762326088	0.251451357	0.738185222	0.002345131	92.906474133	0.183677184	0.737823808	0.002343752	92.918069302	0.183659116	0.565466004	0.002517083	179.436661173	0.252067682
751106833.333333000	0.571090493	0.002510311	178.545581318	0.248900975	0.736393499	0.002335650	88.744506672	0.183582774	0.736034837	0.002334273	88.757576797	0.183564392	0.567009820	0.002501526	175.555129189	0.249815054
765273000.000000000	0.570413276	0.002524180	174.934560041	0.251266372	0.736284243	0.002356080	84.572392426	0.185706841	0.735894826	0.002354513	84.584690939	0.185682152	0.565971535	0.002518748	171.746897302	0.252772444
779439166.666667000	0.565231091	0.002542318	171.406007032	0.256311303	0.738489289	0.002356910	80.352400496	0.185442493	0.738126679	0.002355470	80.365761166	0.185420976	0.560500552	0.002531643	167.976901092	0.257400593
793605333.333333000	0.556710566	0.002521349	167.780384088	0.258448595	0.742507833	0.002347716	76.082163299	0.183822343	0.742151817	0.002346405	76.094773643	0.183808030	0.551687901	0.002505954	164.094693175	0.259103491
807771500.000000000	0.546533400	0.002487883	164.049450068	0.259801202	0.747870363	0.002366779	71.780548815	0.184397999	0.747490549	0.002365351	71.793410077	0.184381246	0.541034945	0.002475607	160.106082457	0.261160969
821937666.666667000	0.533274894	0.002480356	160.394321204	0.265912101	0.754644822	0.002408807	67.378865431	0.186460884	0.754270592	0.002406249	67.392325218	0.186387105	0.527134221	0.002465961	156.139475839	0.267556146
836103833.333333000	0.515717818	0.002424935	156.816510377	0.269138577	0.762910251	0.002377538	62.845473627	0.182058329	0.762549983	0.002376195	62.860029589	0.182042364	0.508974962	0.002412052	152.160797137	0.271269535
850270000.000000000	0.494787063	0.002359694	153.098382711	0.272867403	0.772583775	0.002363952	58.200877611	0.178880068	0.772234480	0.002362750	58.215029710	0.178870610	0.487502909	0.002344754	147.999970364	0.275190720
864436166.666667000	0.471148218	0.002297002	149.311520911	0.278932723	0.783133270	0.002380536	53.444968135	0.178139882	0.782762741	0.002379179	53.462467063	0.178123469	0.463170289	0.002285640	143.770026061	0.282460277
878602333.333333000	0.443942880	0.002263256	145.722451635	0.292418884	0.794129585	0.002398181	48.531900535	0.177449839	0.793764580	0.002396844	48.548075766	0.177433235	0.434995960	0.002246894	139.673020522	0.296382516
892768500.000000000	0.411932190	0.002232431	142.280009184	0.311908723	0.805602851	0.002401140	43.446583141	0.175495676	0.805254638	0.002400103	43.462192263	0.175495528	0.401916235	0.002200897	135.578227944	0.314989535
906934666.666667000	0.375595171	0.002163273	138.869278951	0.331654290	0.817489981	0.002405052	38.196517749	0.173644134	0.817119812	0.002404115	38.212834564	0.173654806	0.364394072	0.002124435	131.372782028	0.335389738
921100833.333333000	0.336585610	0.002070263	135.774953695	0.353593247	0.828892276	0.002410821	32.793140254	0.172138501	0.828507775	0.002409720	32.810917173	0.172139572	0.323776987	0.002039284	127.339614788	0.362054657
935267000.000000000	0.294802409	0.001995229	133.415369527	0.388967469	0.839066826	0.002407075	27.240457176	0.170200777	0.838689469	0.002405906	27.256945510	0.170195207	0.279744846	0.001967575	123.733675211	0.404289276
949433166.666667000	0.249587227	0.001927679	132.168382361	0.444038168	0.847911580	0.002392644	21.541079190	0.168023319	0.847541495	0.002393552	21.555969917	0.167804783	0.231574597	0.001903261	120.708475972	0.472380584
963599333.333333000	0.203395643	0.001875231	132.811153216	0.529488383	0.855038893	0.002382978	15.710700451	0.166128201	0.854678383	0.002382093	15.726720173	0.166136013	0.181268070	0.001832583	118.970261995	0.580378870
977765500.000000000	0.159968906	0.001822567	137.049654002	0.653368428	0.859738304	0.002380116	9.801631852	0.165465034	0.859370452	0.002379123	9.817419881	0.165466693	0.131457489	0.001783056	120.456232597	0.777804679
991931666.666667000	0.123173123	0.001793301	148.441685651	0.834769046	0.861799973	0.002375735	3.839199926	0.165174674	0.861414012	0.002374649	3.856420660	0.165173262	0.084411444	0.001756587	130.961965538	1.192669677
1006097833.333330000	0.103772388	0.001789554	170.363553117	0.988829684	0.861165399	0.002368690	-2.155187295	0.165156041	0.860785405	0.002367694	-2.136492072	0.165159173	0.055666552	0.001748845	167.617690701	1.800549056
1020264000.000000000	0.112524079	0.001800702	-165.623928533	0.918517728	0.857902169	0.002361710	-8.129892610	0.165593849	0.857544633	0.002360825	-8.111686939	0.165600087	0.073970936	0.001761298	-149.430631706	1.365064366
1034430166.666670000	0.142785398	0.001824068	-150.811520345	0.733950613	0.852040194	0.002354721	-14.046671127	0.166486816	0.851672743	0.002353769	-14.029752877	0.166490884	0.117187688	0.001788362	-134.837412913	0.876033359
1048596333.333330000	0.183629661	0.001861316	-144.235580309	0.583030198	0.843805482	0.002353269	-19.885641442	0.168234858	0.843423603	0.002352178	-19.863052692	0.168233161	0.166104475	0.001831170	-131.707583181	0.633868040
1062762500.000000000	0.226799038	0.001915870	-142.320454345	0.487138940	0.833852508	0.002353260	-25.605193141	0.170436949	0.833505450	0.002352203	-25.584396243	0.170432007	0.214117249	0.001892613	-132.560935431	0.509667686
1076928666.666670000	0.267952891	0.001985702	-142.814308547	0.428930356	0.822700311	0.002345372	-31.196164271	0.172290891	0.822375504	0.002344414	-31.176831629	0.172288725	0.258420775	0.001962666	-135.073699990	0.439364755
1091094833.333330000	0.307448007	0.002034984	-144.704880128	0.383737931	0.810423662	0.002331873	-36.640331100	0.173986971	0.810082364	0.002330896	-36.620163676	0.173987304	0.300060382	0.002013414	-138.475887338	0.388803712
1105261000.000000000	0.344977575	0.002074018	-147.378365880	0.349129497	0.797538761	0.002319876	-41.928046328	0.175977915	0.797200666	0.002318818	-41.904907776	0.175972832	0.339048993	0.002059272	-142.283492915	0.352611422
1119427166.666670000	0.378438646	0.002137831	-150.299692072	0.329161568	0.784938120	0.002308996	-47.068697847	0.178060042	0.784615524	0.002307895	-47.046078498	0.178049481	0.373598458	0.002128767	-146.120446753	0.331973008
1133593333.333330000	0.407623846	0.002211207	-153.406940269	0.317576820	0.772800765	0.002296389	-52.062159335	0.179981378	0.772465629	0.002295274	-52.040436120	0.179972960	0.403601649	0.002199915	-150.024716537	0.318992450
1147759500.000000000	0.433638314	0.002255331	-156.798317407	0.305343712	0.761126182	0.002285961	-56.897066264	0.182043492	0.760779293	0.002284793	-56.874817533	0.182034606	0.430232150	0.002245052	-154.078488777	0.306276952
1161925666.666670000	0.456368500	0.002286349	-160.256971860	0.294818868	0.750408660	0.002281571	-61.606904259	0.184465033	0.750074332	0.002280286	-61.582320432	0.184445565	0.453441636	0.002285836	-158.062054742	0.296716040
1176091833.333330000	0.475233768	0.002331205	-163.592864829	0.289925689	0.740944421	0.002296789	-66.223137029	0.188270801	0.740612746	0.002282886	-66.199774726	0.187151858	0.472604160	0.002361800	-161.887816210	0.295318966
1190258000.000000000	0.490449850	0.002382691	-166.984046321	0.287901907	0.732843621	0.002269109	-70.751296998	0.188229349	0.732519122	0.002267924	-70.728069468	0.188215832	0.487979559	0.002376680	-165.776168501	0.288536903
1204424166.666670000	0.502761723	0.002368655	-170.482059702	0.279315494	0.725949808	0.002245226	-75.179930413	0.188155267	0.725642623	0.002244180	-75.155468931	0.188148528	0.500499547	0.002359049	-169.705407483	0.279338866
1218590333.333330000	0.512554125	0.002359604	-173.905558300	0.273381328	0.720454169	0.002229978	-79.547247438	0.188548764	0.720139802	0.002228820	-79.523217816	0.188534803	0.510489253	0.002356616	-173.471515539	0.274094997
1232756500.000000000	0.519141494	0.002403161	-177.226710198	0.275792841	0.716516102	0.002235702	-83.892927061	0.190355967	0.716211639	0.002234511	-83.869182900	0.190337880	0.516990210	0.002401254	-177.140241210	0.276694083
1246922666.666670000	0.522191825	0.002433126	179.410174707	0.278544055	0.714200231	0.002230865	-88.217874356	0.190888296	0.713889699	0.002229736	-88.194977479	0.190876355	0.519741335	0.002425232	179.107655208	0.278844321
