%Frequency (Hz)	S1,1 Mag 	S1,1 u(Mag) 	S1,1 Phase (°)	S1,1 u(Phase) (°)	S2,1 Mag 	S2,1 u(Mag) 	S2,1 Phase (°)	S2,1 u(Phase) (°)	S1,2 Mag 	S1,2 u(Mag) 	S1,2 Phase (°)	S1,2 u(Phase) (°)	S2,2 Mag 	S2,2 u(Mag) 	S2,2 Phase (°)	S2,2 u(Phase) (°)
300000.000000000	0.001402854	NaN	-99.461048849	NaN	0.999516667	NaN	-0.128533402	NaN	0.999631101	NaN	-0.133451191	NaN	0.001407438	NaN	-99.431672327	NaN
14466166.666666700	0.065415042	0.002003300	-97.153866338	1.755336213	0.996861714	0.001373045	-6.367753832	0.080914151	0.996804879	0.001372968	-6.369477414	0.080914246	0.065337288	0.001998007	-97.156350982	1.752605568
28632333.333333300	0.127568546	0.002026658	-103.114095604	0.910141737	0.990307221	0.002107285	-12.509097840	0.129559655	0.990245885	0.002107157	-12.511285608	0.129559701	0.127441579	0.002004146	-103.089691068	0.900613718
42798500.000000000	0.187137176	0.002050378	-109.034185498	0.629344096	0.980383460	0.002114200	-18.544215396	0.131122732	0.980315576	0.002114058	-18.546481735	0.131122986	0.187013904	0.002005118	-109.001995665	0.615427831
56964666.666666700	0.243251656	0.002091868	-114.879198730	0.494460519	0.967674729	0.002107634	-24.440369858	0.132045187	0.967584903	0.002107442	-24.441927684	0.132045344	0.243154002	0.002002432	-114.849771871	0.472340777
71130833.333333300	0.295271636	0.002115552	-120.569615112	0.412418431	0.952854226	0.002093120	-30.170335459	0.132857656	0.952769354	0.002092938	-30.172808731	0.132857994	0.295246934	0.002007408	-120.554267859	0.390646694
85297000.000000000	0.342740101	0.002134175	-126.053183003	0.358189963	0.936618537	0.002144014	-35.721108743	0.138386853	0.936546807	0.002143865	-35.723229870	0.138387689	0.342818840	0.002040324	-126.062395478	0.342831168
99463166.666666700	0.385389293	0.002194261	-131.351862489	0.328765145	0.919681893	0.002145699	-41.072147079	0.140847902	0.919596963	0.002145519	-41.075057755	0.140848979	0.385523604	0.002031447	-131.384370493	0.303520740
113629333.333333000	0.423322150	0.002252220	-136.492352636	0.308175650	0.902687343	0.002100069	-46.234892771	0.140003471	0.902625481	0.002099944	-46.236385852	0.140004867	0.423439630	0.002009950	-136.542289085	0.272852291
127795500.000000000	0.456865983	0.002250674	-141.446947125	0.284905089	0.886055869	0.002094838	-51.215202255	0.142078224	0.886010443	0.002094764	-51.216088009	0.142080052	0.456910727	0.002049758	-141.509274740	0.258748682
141961666.666667000	0.486048912	0.002278337	-146.218023814	0.271595256	0.870287525	0.002145089	-56.023586548	0.148299148	0.870218056	0.002144962	-56.025109952	0.148302354	0.485991965	0.002066463	-146.292769798	0.245634942
156127833.333333000	0.510948783	0.002300935	-150.826845766	0.260965903	0.855920683	0.002117172	-60.660094976	0.148531827	0.855855499	0.002117051	-60.662668871	0.148534020	0.510767480	0.002078048	-150.906584964	0.234976166
170294000.000000000	0.531958257	0.002369186	-155.317008184	0.259410396	0.842978411	0.002056822	-65.161193518	0.146144451	0.842910892	0.002056682	-65.163387945	0.146146236	0.531643072	0.002025723	-155.397326276	0.219229886
184460166.666667000	0.549480665	0.002342677	-159.672366207	0.247730491	0.831578968	0.002069758	-69.531403765	0.149090955	0.831504826	0.002069619	-69.535728261	0.149093714	0.549072395	0.002114235	-159.757984321	0.223037718
198626333.333333000	0.563459218	0.002354316	-163.904115742	0.243109625	0.822108825	0.002110101	-73.802168800	0.154069053	0.822025602	0.002109940	-73.805984379	0.154072927	0.562982112	0.002126856	-163.997653691	0.219173639
212792500.000000000	0.573931501	0.002352646	-168.048225041	0.238345480	0.814829486	0.002073546	-77.985044693	0.152466249	0.814751168	0.002073387	-77.988306005	0.152468719	0.573439673	0.002115731	-168.137705622	0.213766914
226958666.666667000	0.581262954	0.002357233	-172.154576004	0.236027439	0.809437837	0.002034424	-82.105381306	0.150423725	0.809363235	0.002034257	-82.108827575	0.150425106	0.580775008	0.002119352	-172.228925012	0.211638627
241124833.333333000	0.585736152	0.002369370	-176.214421191	0.235589445	0.805971970	0.002059450	-86.174662563	0.153122159	0.805878373	0.002059237	-86.177857401	0.153123977	0.585248086	0.002139147	-176.276117343	0.212274356
255291000.000000000	0.587252869	0.002357688	179.761860672	0.233760350	0.804793480	0.002078944	-90.236440878	0.154976166	0.804698816	0.002078749	-90.239314958	0.154979368	0.586767009	0.002124260	179.707957702	0.210179363
269457166.666667000	0.585613338	0.002346719	175.745272416	0.233119736	0.805745995	0.002043560	-94.295786070	0.151958844	0.805637028	0.002043330	-94.299230165	0.151962319	0.585160745	0.002103925	175.698657349	0.208410341
283623333.333333000	0.581045203	0.002350445	171.686581138	0.235588305	0.808719618	0.002029231	-98.370663422	0.150374198	0.808603026	0.002028972	-98.372488279	0.150376132	0.580634765	0.002111815	171.644136841	0.211209086
297789500.000000000	0.573666584	0.002354184	167.597990458	0.239095290	0.813780856	0.002062498	-102.480067888	0.152177279	0.813675264	0.002062243	-102.483623498	0.152178332	0.573301932	0.002128733	167.546292940	0.216040869
311955666.666667000	0.563036633	0.002338238	163.475351807	0.241880507	0.820841928	0.002083562	-106.666740408	0.152661985	0.820723113	0.002083268	-106.668114831	0.152662384	0.562676798	0.002116182	163.398559880	0.218815324
326121833.333333000	0.548924119	0.002322364	159.270927297	0.246262586	0.829938628	0.002070490	-110.935652850	0.150082625	0.829823220	0.002070214	-110.938281033	0.150083409	0.548565651	0.002095589	159.164198156	0.222061153
340288000.000000000	0.531362680	0.002305004	154.940814359	0.252370063	0.840975118	0.002069208	-115.307784941	0.148192167	0.840877349	0.002068991	-115.308732704	0.148193827	0.531035315	0.002084623	154.796042368	0.228218332
354454166.666667000	0.510250995	0.002277539	150.506960348	0.259352184	0.853615530	0.002093575	-119.803707634	0.148038699	0.853519093	0.002093364	-119.802302424	0.148040687	0.509939713	0.002070570	150.307084451	0.235939687
368620333.333333000	0.485164010	0.002255037	145.965962558	0.269823442	0.867677875	0.002109513	-124.450884333	0.147057305	0.867595819	0.002109332	-124.449406124	0.147058235	0.484838589	0.002050251	145.681505009	0.245468218
382786500.000000000	0.455709724	0.002293497	141.281422397	0.291960320	0.883046263	0.002066647	-129.257733003	0.141967109	0.882975899	0.002094498	-129.258006504	0.143795401	0.455372857	0.002040255	140.881618235	0.259865923
396952666.666667000	0.421888430	0.002212929	136.427478937	0.304223831	0.899329014	0.002092665	-134.243621365	0.141274658	0.899284051	0.002092556	-134.243852702	0.141274171	0.421575891	0.002028991	135.873253541	0.278972516
411118833.333333000	0.383627784	0.002169875	131.443615242	0.327309251	0.915884433	0.002114243	-139.410051703	0.140599713	0.915840186	0.002114133	-139.412249375	0.140599285	0.383303974	0.002017066	130.678419832	0.304572707
425285000.000000000	0.340514398	0.002129281	126.349027516	0.361253148	0.932295912	0.002123895	-144.771445572	0.139194529	0.932248216	0.002123783	-144.774645827	0.139194243	0.340166241	0.002005272	125.310368533	0.340644139
439451166.666667000	0.292473791	0.002097359	121.142193032	0.413672265	0.948017301	0.002105109	-150.329915537	0.136042129	0.947995062	0.002105060	-150.333718111	0.136042094	0.292125009	0.001997566	119.759988672	0.394407866
453617333.333333000	0.240025990	0.002058327	115.866744439	0.493757983	0.962192860	0.002098105	-156.075306168	0.134010154	0.962170539	0.002098057	-156.078949793	0.134010229	0.239668471	0.001989248	114.026930213	0.477734468
467783500.000000000	0.183623393	0.002018254	110.728626640	0.631425064	0.974116376	0.002106033	-161.975244430	0.133299954	0.974093639	0.002105986	-161.978986653	0.133300121	0.183210236	0.001980576	108.177615201	0.621009930
481949666.666667000	0.123752111	0.001996571	106.267365914	0.925147987	0.983104545	0.002099118	-168.020593020	0.131995783	0.983092090	0.002099095	-168.024529425	0.131995953	0.123223091	0.001985298	102.316910995	0.923658283
496115833.333333000	0.061717401	0.001978850	104.940445411	1.838187611	0.988566539	0.001652083	-174.161279446	0.102939998	0.988556470	0.001652064	-174.165668221	0.102939931	0.060827268	0.001982981	96.675537573	1.868947655
510282000.000000000	0.010520944	0.001974813	-165.488485569	10.759681767	0.990164052	0.001886155	179.652103861	0.117974041	0.990147429	0.001886125	179.645855082	0.117974131	0.002850808	0.001982891	-107.316078229	39.852598804
524448166.666667000	0.067342201	0.001978417	-105.669309513	1.684107162	0.987688829	0.001882832	173.461539828	0.118162721	0.987684900	0.001882823	173.454850662	0.118162674	0.066429643	0.001979629	-97.143600755	1.708349804
538614333.333333000	0.129724855	0.001995432	-107.655395189	0.882538045	0.981314664	0.002094020	167.317819837	0.132489720	0.981315108	0.002094020	167.314186000	0.132489520	0.129072290	0.001979715	-102.893645775	0.880028808
552780500.000000000	0.189954812	0.002021628	-112.235416700	0.612001494	0.971442564	0.002108718	161.274199995	0.134701353	0.971439450	0.002108713	161.268577185	0.134701294	0.189323813	0.001981317	-108.732516650	0.601986717
566946666.666667000	0.246925044	0.002064920	-117.421490859	0.482249704	0.958561467	0.002105059	155.357288336	0.136112010	0.958557952	0.002105050	155.352136781	0.136111786	0.246270757	0.001990051	-114.526521847	0.466137338
581112833.333333000	0.300055185	0.002103705	-122.768321603	0.405542596	0.943314616	0.002101507	149.611501788	0.137883736	0.943304171	0.002101471	149.605340012	0.137883104	0.299361608	0.001998324	-120.209510644	0.386580003
595279000.000000000	0.348771512	0.002141886	-128.056093930	0.356090053	0.926593325	0.002133220	144.042193490	0.142325309	0.926585896	0.002133172	144.036139677	0.142324144	0.348063019	0.002014721	-125.698540691	0.336639806
609445166.666667000	0.392567816	0.002174934	-133.215210955	0.322308969	0.909083587	0.002138166	138.676449333	0.145212810	0.909082646	0.002138151	138.668685097	0.145211517	0.391866990	0.002028875	-130.970087934	0.302371415
623611333.333333000	0.431444294	0.002202124	-138.256700624	0.297487898	0.891402254	0.002105618	133.516643083	0.145576352	0.891384858	0.002105551	133.507637098	0.145575391	0.430754377	0.002030411	-136.068494825	0.276048778
637777500.000000000	0.465808978	0.002212890	-143.153769853	0.277487987	0.874123945	0.002075854	128.548992319	0.146201632	0.874101716	0.002075770	128.538429866	0.146199440	0.465107211	0.002027251	-140.991770254	0.256226704
651943666.666667000	0.495772146	0.002238881	-147.868608090	0.264458207	0.857645478	0.002087685	123.750604932	0.149767618	0.857610444	0.002087567	123.743019015	0.149765789	0.495045504	0.002050816	-145.719218546	0.244625490
666109833.333333000	0.521344671	0.002285427	-152.403643460	0.257703573	0.842551781	0.002089320	119.131548864	0.152532380	0.842500531	0.002089181	119.122606593	0.152531667	0.520617164	0.002092263	-150.271604943	0.238542575
680276000.000000000	0.542842392	0.002315655	-156.818299756	0.251543360	0.829041611	0.002064056	114.664246580	0.153055817	0.829004164	0.002063972	114.655177218	0.153056406	0.542076956	0.002111022	-154.706293669	0.232019939
694442166.666667000	0.560834109	0.002322795	-161.113557769	0.244626477	0.817053382	0.002056238	110.325632269	0.154701925	0.817011720	0.002056130	110.318940493	0.154701692	0.560007886	0.002116512	-159.021008216	0.225777102
708608333.333333000	0.575530506	0.002338698	-165.285450176	0.240555006	0.806873738	0.002078609	106.088507929	0.158473858	0.806822651	0.002078436	106.082306545	0.158470975	0.574625662	0.002139103	-163.209178233	0.223177225
722774500.000000000	0.586760037	0.002351839	-169.367893922	0.237710129	0.798825698	0.002068891	101.944403691	0.159309298	0.798796358	0.002068751	101.940583302	0.159305318	0.585824558	0.002152157	-167.293380294	0.220839553
736940666.666667000	0.594848018	0.002329917	-173.410660068	0.232313312	0.792884321	0.002021869	97.871995650	0.156831264	0.792878027	0.002021817	97.869181751	0.156828701	0.593905473	0.002124683	-171.315473715	0.215279901
751106833.333333000	0.600302256	0.002306362	-177.424987639	0.227972239	0.788725000	0.002004598	93.852980415	0.156497318	0.788711851	0.002004559	93.851500310	0.156497067	0.599282047	0.002105623	-175.284368787	0.211798291
765273000.000000000	0.603045207	0.002325540	178.597490028	0.229289880	0.786566197	0.002032069	89.855288216	0.159290341	0.786523060	0.002031957	89.853066626	0.159290397	0.601963617	0.002135558	-179.202545747	0.214467683
779439166.666667000	0.602746206	0.002361359	174.642083101	0.233468692	0.786701112	0.002033949	85.864440858	0.159621084	0.786688608	0.002033903	85.861847792	0.159620546	0.601716324	0.002168864	176.902495832	0.218460222
793605333.333333000	0.599490552	0.002355314	170.648684789	0.234356465	0.788877849	0.002017442	81.858358339	0.158107638	0.788861262	0.002017399	81.854868483	0.158106922	0.598523362	0.002155766	172.977512131	0.218547301
807771500.000000000	0.593747526	0.002336128	166.617669379	0.234574530	0.793000817	0.002039364	77.833384191	0.159281389	0.792929077	0.002039179	77.830191413	0.159282102	0.592792109	0.002142568	169.029648241	0.219415733
821937666.666667000	0.585051975	0.002329189	162.543022852	0.237502156	0.799134004	0.002071546	73.749165195	0.160916014	0.799081408	0.002071408	73.744324310	0.160915047	0.584143555	0.002152188	165.055120240	0.223916640
836103833.333333000	0.572962652	0.002315125	158.394707093	0.240900255	0.807342579	0.002055780	69.580287740	0.158312528	0.807281440	0.002055612	69.574260247	0.158312910	0.572169476	0.002138754	161.029450497	0.227074529
850270000.000000000	0.557643412	0.002269213	154.118271221	0.242190350	0.817563354	0.002031073	65.322402846	0.154907904	0.817506197	0.002030979	65.316045814	0.154909974	0.556970370	0.002086985	156.916671094	0.227265186
864436166.666667000	0.539133232	0.002231993	149.696602818	0.245963714	0.829463937	0.002049956	60.958732078	0.154593260	0.829421035	0.002049895	60.953897017	0.154596870	0.538486217	0.002056704	152.714126542	0.231253530
878602333.333333000	0.516885075	0.002231777	145.144541438	0.256390936	0.842962052	0.002078060	56.456949116	0.154729435	0.842906658	0.002077965	56.451226970	0.154731539	0.516292219	0.002072871	148.436401720	0.242779562
892768500.000000000	0.490422916	0.002242336	140.437832785	0.271457914	0.857912411	0.002087773	51.792012074	0.153306543	0.857852348	0.002087670	51.786486018	0.153308983	0.489956902	0.002091079	144.048986323	0.257610488
906934666.666667000	0.459710327	0.002209346	135.522217822	0.284675251	0.874070312	0.002097522	46.958402219	0.151818582	0.874034010	0.002097465	46.954442942	0.151821631	0.459382093	0.002066934	139.517520076	0.270461948
921100833.333333000	0.424735204	0.002152642	130.397994451	0.298934166	0.890935684	0.002112360	41.949608064	0.150687898	0.890911137	0.002112313	41.947625591	0.150688589	0.424543101	0.002028035	134.876330665	0.285496805
935267000.000000000	0.385051358	0.002111219	125.071911139	0.322203969	0.907984082	0.002114050	36.748426181	0.148717193	0.907973859	0.002114005	36.743291580	0.148716021	0.385048795	0.002014102	130.172618017	0.310773450
949433166.666667000	0.340447342	0.002075073	119.500052361	0.356747359	0.924767350	0.002099276	31.341020572	0.145837830	0.924750386	0.002099234	31.337086097	0.145837385	0.340762535	0.002007804	125.437425196	0.347874930
963599333.333333000	0.291277225	0.002025655	113.617722805	0.404780893	0.940620492	0.002088048	25.739919903	0.143475543	0.940631212	0.002088088	25.737072152	0.143476719	0.292007152	0.001995025	120.764573478	0.400706276
977765500.000000000	0.238038524	0.001988021	107.382463972	0.483640313	0.954713984	0.002092604	19.968607141	0.142430117	0.954716522	0.002092623	19.965534738	0.142430793	0.239204776	0.001980274	116.397766451	0.481863767
991931666.666667000	0.180899460	0.001972285	100.681689056	0.629009237	0.966437831	0.002097033	14.042929704	0.141714740	0.966424532	0.002097007	14.040942087	0.141715032	0.182728671	0.001981753	112.853626818	0.627508731
1006097833.333330000	0.120638656	0.001960005	93.072336986	0.934938527	0.975092814	0.002093211	7.987239362	0.140868160	0.975096005	0.002093215	7.984772625	0.140868004	0.123722648	0.001983830	111.549715972	0.923622015
1020264000.000000000	0.058785445	0.001944880	82.011777145	1.896794472	0.980189023	0.002089546	1.848097248	0.140429558	0.980201370	0.002089574	1.846305702	0.140429676	0.065289947	0.001977180	118.978385782	1.737895864
1034430166.666670000	0.011057917	0.001946248	-32.923234118	10.084938533	0.981451479	0.002080580	-4.325304070	0.140006219	0.981447578	0.002067024	-4.325590248	0.139297044	0.030709147	0.001970810	-174.973189893	3.678046841
1048596333.333330000	0.069112225	0.001963933	-92.781986106	1.629925917	0.978748101	0.002087323	-10.485105457	0.141074251	0.978739216	0.002087304	-10.487787405	0.141074236	0.074652538	0.001968551	-124.720526461	1.513612326
1062762500.000000000	0.130392807	0.001990527	-102.702454164	0.878253703	0.972309439	0.002096278	-16.581894657	0.142602114	0.972312398	0.002096283	-16.585389648	0.142602222	0.133151886	0.001969703	-119.936146053	0.852843645
1076928666.666670000	0.189017628	0.002040479	-109.991251247	0.624419031	0.962584817	0.002102886	-22.582489777	0.144359837	0.962599739	0.002102922	-22.583522781	0.144359978	0.190668884	0.001980020	-121.849827398	0.603025652
1091094833.333330000	0.244483754	0.002076451	-116.501603777	0.493644611	0.950052228	0.002102379	-28.444622643	0.146034383	0.950066676	0.002102415	-28.443876909	0.146034631	0.245500480	0.001978734	-125.622895756	0.471776458
1105261000.000000000	0.296110132	0.002099857	-122.583843288	0.414038566	0.935459018	0.002118646	-34.135834601	0.148934298	0.935458271	0.002098445	-34.133524220	0.147860551	0.296674394	0.001963388	-130.041644826	0.391027562
1119427166.666670000	0.342980948	0.002132817	-128.310996301	0.365264156	0.919706430	0.002097892	-39.644334525	0.149969688	0.919706162	0.002097886	-39.642871808	0.149969500	0.343196686	0.001980880	-134.663931078	0.344595220
1133593333.333330000	0.384979754	0.002189565	-133.775491547	0.336519396	0.903287399	0.002092690	-44.959221595	0.152032423	0.903284823	0.002092677	-44.959496226	0.152031943	0.384929262	0.002011284	-139.351311040	0.315708795
1147759500.000000000	0.422617299	0.002222699	-139.033385316	0.313083305	0.886682094	0.002087170	-50.081840235	0.154189849	0.886660373	0.002087125	-50.082018069	0.154190264	0.422309640	0.002022869	-144.026899342	0.292559805
1161925666.666670000	0.455785465	0.002241218	-144.060463518	0.294244156	0.870650289	0.002089502	-55.021421958	0.156895680	0.870647962	0.002089511	-55.021022335	0.156896422	0.455276856	0.002030612	-148.591820241	0.275146850
1176091833.333330000	0.484204367	0.002289161	-148.846245007	0.284624791	0.855690808	0.002097521	-59.789686936	0.159969552	0.855675054	0.002097502	-59.787740512	0.159970636	0.483511639	0.002068239	-153.027147128	0.266394698
1190258000.000000000	0.508321547	0.002331357	-153.477288398	0.277572671	0.842012508	0.002092381	-64.404174574	0.161983948	0.842000122	0.002092373	-64.403167835	0.161985245	0.507465002	0.002095021	-157.408162489	0.259177137
1204424166.666670000	0.528819254	0.002305262	-157.971902432	0.264546687	0.829695260	0.002062264	-68.869903511	0.162068616	0.829686122	0.002062252	-68.867300542	0.162069400	0.527837533	0.002064689	-161.716255796	0.247436664
1218590333.333330000	0.545754472	0.002277869	-162.301107882	0.254260375	0.819199406	0.002039047	-73.219179389	0.162429884	0.819144584	0.002038903	-73.214275131	0.162429283	0.544716309	0.002048445	-165.892509659	0.239739947
1232756500.000000000	0.558924590	0.002320897	-166.497502572	0.253918098	0.810700090	0.002049242	-77.476047251	0.164858359	0.810647676	0.002049100	-77.473169784	0.164857530	0.557798709	0.002099769	-169.971771459	0.241093740
1246922666.666670000	0.568685730	0.002362399	-170.641624500	0.255073993	0.804103117	0.002043581	-81.648140022	0.165913801	0.804053450	0.002043448	-81.645785677	0.165913397	0.567410714	0.002136955	-174.037494047	0.242318848
