%Frequency (Hz)	S1,1 Mag 	S1,1 u(Mag) 	S1,1 Phase (°)	S1,1 u(Phase) (°)	S2,1 Mag 	S2,1 u(Mag) 	S2,1 Phase (°)	S2,1 u(Phase) (°)	S1,2 Mag 	S1,2 u(Mag) 	S1,2 Phase (°)	S1,2 u(Phase) (°)	S2,2 Mag 	S2,2 u(Mag) 	S2,2 Phase (°)	S2,2 u(Phase) (°)
300000.000000000	0.000870319	NaN	-96.013637580	NaN	0.999927875	NaN	-0.129181165	NaN	0.999808890	NaN	-0.100536985	NaN	0.000714657	NaN	-106.333246701	NaN
14466166.666666700	0.048367788	0.001995597	-95.684514337	2.364839594	0.998385497	0.001413051	-5.457478171	0.082668365	0.998477424	0.001413183	-5.458552785	0.082668450	0.048390483	0.001995494	-95.638233703	2.363649688
28632333.333333300	0.094954135	0.001986689	-100.915537074	1.198226016	0.994833808	0.002134824	-10.762061079	0.130273516	0.994912934	0.002134995	-10.762595525	0.130273537	0.095023976	0.001985628	-100.854140509	1.196808070
42798500.000000000	0.140360403	0.001958156	-106.104506741	0.800998673	0.989203728	0.002141366	-16.018335004	0.131275104	0.989281358	0.002141536	-16.018153025	0.131275219	0.140474257	0.001958947	-106.038024103	0.800755024
56964666.666666700	0.184061020	0.001932351	-111.257313104	0.603014418	0.981804247	0.002177599	-21.206371342	0.133712739	0.981871787	0.002177748	-21.206669957	0.133712702	0.184197903	0.001924348	-111.193574842	0.599691571
71130833.333333300	0.225536931	0.001878812	-116.329623870	0.479153296	0.972920209	0.001780901	-26.309228951	0.107980686	0.972989916	0.001781030	-26.309847455	0.107980811	0.225681051	0.001877826	-116.276801709	0.478585125
85297000.000000000	0.264467402	0.001825332	-121.296930981	0.396802282	0.962823025	0.002218292	-31.318659550	0.138617820	0.962909636	0.002218499	-31.319521423	0.138618196	0.264611376	0.001859230	-121.257515398	0.405271113
99463166.666666700	0.300644403	0.001797642	-126.162060863	0.345460612	0.951898671	0.002230192	-36.216688167	0.140810674	0.951966331	0.002230359	-36.218276386	0.140811176	0.300766404	0.001797499	-126.144164468	0.345339757
113629333.333333000	0.333863492	0.001776768	-130.916148094	0.308806566	0.940583161	0.002206342	-41.008125036	0.140617479	0.940657310	0.002206525	-41.008616108	0.140618018	0.333941058	0.001731842	-130.925522505	0.299626772
127795500.000000000	0.364102509	0.001683535	-135.546190139	0.268392621	0.929078898	0.002255996	-45.687640807	0.145256416	0.929144323	0.002205064	-45.687381442	0.142111433	0.364125856	0.001694684	-135.583231354	0.270229850
141961666.666667000	0.391349925	0.001657768	-140.078565658	0.246539554	0.917627217	0.002261253	-50.258755058	0.147664972	0.917683614	0.002261418	-50.259419342	0.147666772	0.391336902	0.001658785	-140.138591481	0.246773191
156127833.333333000	0.415594315	0.001618739	-144.502638851	0.227090305	0.906670279	0.002251623	-54.712547591	0.148589841	0.906717166	0.002251762	-54.713296945	0.148590994	0.415544656	0.001618873	-144.584255513	0.227216445
170294000.000000000	0.436877528	0.001640408	-148.825563763	0.220957714	0.896357156	0.002208255	-59.075460218	0.147038698	0.896421442	0.002208424	-59.076164878	0.147039400	0.436760999	0.001529697	-148.928037918	0.204097201
184460166.666667000	0.455275473	0.001562440	-153.051996387	0.201625540	0.886817840	0.002221671	-63.338585985	0.149500245	0.886868799	0.002221822	-63.339718058	0.149501476	0.455103557	0.001564262	-153.171754557	0.202021611
198626333.333333000	0.470797274	0.001528904	-157.208793254	0.191506405	0.878241652	0.002265621	-67.519405499	0.154216974	0.878288886	0.002265775	-67.520810204	0.154219316	0.470592448	0.001534687	-157.344288912	0.192405344
212792500.000000000	0.483612334	0.001497065	-161.287472848	0.182636570	0.870889719	0.002241389	-71.625199739	0.153621163	0.870947535	0.002241561	-71.625477889	0.153622410	0.483360990	0.001494125	-161.440315482	0.182421000
226958666.666667000	0.493894107	0.001480611	-165.306749650	0.177555112	0.864694712	0.002207034	-75.676664244	0.152146948	0.864758354	0.002207202	-75.677469806	0.152147345	0.493569513	0.001475224	-165.479548001	0.176979465
241124833.333333000	0.501692437	0.001473819	-169.272749433	0.174285617	0.859716174	0.002227878	-79.672097779	0.154615290	0.859768146	0.002228024	-79.672579286	0.154615991	0.501314190	0.001475322	-169.469742884	0.174636397
255291000.000000000	0.507064709	0.001444771	-173.202719962	0.169166809	0.856117058	0.002247325	-83.637259886	0.156788774	0.856181653	0.002247527	-83.638910724	0.156790728	0.506652975	0.001445114	-173.428613533	0.169393617
269457166.666667000	0.510029399	0.001431584	-177.090531724	0.166485327	0.853844502	0.002215292	-87.572616385	0.154763383	0.853916137	0.002215508	-87.573944198	0.154765535	0.509585657	0.001419492	-177.354475767	0.165131465
283623333.333333000	0.510600417	0.001426150	179.040872247	0.166099706	0.852969686	0.002226564	-91.497614416	0.155660511	0.853023287	0.002172714	-91.498578356	0.151855948	0.510112385	0.001440703	178.727952185	0.167924692
297789500.000000000	0.508705648	0.001456404	175.181871773	0.170332947	0.853555805	0.002217969	-95.420943449	0.155200493	0.853636848	0.002218180	-95.424455358	0.155200621	0.508232762	0.001457930	174.811086223	0.170807116
311955666.666667000	0.504306140	0.001452964	171.315412612	0.171307617	0.855510929	0.002233421	-99.364157626	0.156146715	0.855579934	0.002233596	-99.365985986	0.156146367	0.503891627	0.001459903	170.878023603	0.172401729
326121833.333333000	0.497472618	0.001461755	167.432910430	0.174444127	0.858833681	0.002216297	-103.329794918	0.154350947	0.858890635	0.002216445	-103.332113004	0.154350997	0.497105456	0.001459548	166.916292600	0.174312819
340288000.000000000	0.488164050	0.001476663	163.516651415	0.179332182	0.863511137	0.002205273	-107.342740297	0.152842806	0.863575398	0.002205451	-107.344840157	0.152843337	0.487840746	0.001475477	162.904152586	0.179362755
354454166.666667000	0.476318964	0.001484266	159.566159776	0.184139382	0.869390911	0.002218168	-111.408865111	0.152948184	0.869445507	0.002218317	-111.407550603	0.152949002	0.476035405	0.001493592	158.846935271	0.185645642
368620333.333333000	0.461926662	0.001506001	155.562282469	0.192151608	0.876371763	0.002227207	-115.538698914	0.152602258	0.876403566	0.002227296	-115.539194317	0.152602475	0.461669301	0.001509211	154.724315722	0.192872046
382786500.000000000	0.444874874	0.001554165	151.504945263	0.205501864	0.884406432	0.002210734	-119.739241979	0.150223120	0.884442621	0.002210817	-119.740395430	0.150222990	0.444591539	0.001539172	150.533341003	0.203660310
396952666.666667000	0.425012522	0.001592131	147.389643339	0.220075192	0.893379244	0.002195582	-124.032649408	0.147887594	0.893434838	0.002195709	-124.032959423	0.147886863	0.424677971	0.001576135	146.259807633	0.217879330
411118833.333333000	0.402273225	0.001617981	143.215755156	0.235279333	0.903044553	0.002207531	-128.418000535	0.147456994	0.903104615	0.002207663	-128.420602703	0.147456170	0.401869978	0.001612674	141.895347192	0.234849398
425285000.000000000	0.376597426	0.001657597	138.974626123	0.256847124	0.913234004	0.002226768	-132.903882999	0.147371293	0.913285107	0.002176128	-132.905564837	0.144178593	0.376100312	0.001642547	137.422294492	0.254792047
439451166.666667000	0.347972048	0.001700739	134.685060743	0.284223111	0.923763171	0.002194659	-137.495667338	0.143927723	0.923842642	0.002194842	-137.496101135	0.143927417	0.347375972	0.001692016	132.835380687	0.283319553
453617333.333333000	0.316491035	0.001742472	130.371452763	0.319310586	0.934227663	0.002179079	-142.202643913	0.141628818	0.934292709	0.002179229	-142.203390875	0.141628623	0.315797278	0.001730947	128.125037668	0.317858508
467783500.000000000	0.282244434	0.001777276	126.073754748	0.363926975	0.944361632	0.002187644	-147.010298843	0.141090228	0.944425678	0.002187796	-147.011818613	0.141090429	0.281440452	0.001766048	123.282091913	0.362714243
481949666.666667000	0.245254826	0.001820799	121.853100474	0.427873265	0.953935226	0.002179988	-151.926703140	0.139552459	0.953986107	0.002180112	-151.929498131	0.139552858	0.244305645	0.001810388	118.295030279	0.427074172
496115833.333333000	0.205709555	0.001864564	117.865417360	0.521756015	0.962560585	0.002144447	-156.937842821	0.136344291	0.962595682	0.002144524	-156.941090108	0.136344282	0.204565558	0.001851949	113.175526086	0.521097746
510282000.000000000	0.163937295	0.001898100	114.361482300	0.665203363	0.969874270	0.002139763	-162.039935800	0.135393667	0.969927468	0.002139879	-162.043051543	0.135393636	0.162510353	0.001881985	107.878869567	0.665525927
524448166.666667000	0.120376831	0.001921174	112.006453352	0.915817342	0.975638380	0.002145443	-167.214976448	0.135314744	0.975680889	0.002145535	-167.217535412	0.135314595	0.118425539	0.001903871	102.318959995	0.922541959
538614333.333333000	0.075953946	0.001943909	113.054962394	1.467052536	0.979559319	0.002125440	-172.448181271	0.133682032	0.979608674	0.002128279	-172.450105091	0.133853779	0.072798594	0.001915462	96.187718525	1.508464273
552780500.000000000	0.034098539	0.001948791	130.833812410	3.275661125	0.981432158	0.002128915	-177.716801645	0.133984071	0.981496258	0.002129056	-177.722023618	0.133984126	0.026379835	0.001924679	86.663085627	4.181063169
566946666.666667000	0.029867308	0.001950320	-140.674708119	3.742873376	0.981178635	0.002130353	176.998738048	0.134280751	0.981223492	0.002130452	176.996113860	0.134280834	0.020822382	0.001922699	-83.275908681	5.289523170
581112833.333333000	0.070334806	0.001939668	-117.218051268	1.581525754	0.978771664	0.002129482	171.729427033	0.134653868	0.978822392	0.002129593	171.726522303	0.134653890	0.067084375	0.001909704	-94.466144817	1.632121383
595279000.000000000	0.114478746	0.001928326	-115.364695217	0.965866220	0.974315862	0.002145015	166.485271812	0.136307613	0.974363987	0.002145112	166.483548595	0.136307109	0.112604604	0.001895308	-100.758804429	0.966003383
609445166.666667000	0.158108219	0.001896333	-117.453338067	0.689802641	0.967974439	0.002155419	161.296511900	0.137855171	0.968022166	0.002155520	161.293660333	0.137854700	0.156848198	0.001870097	-106.347416100	0.685956760
623611333.333333000	0.200264053	0.001862026	-120.833378069	0.535394269	0.959994881	0.002160595	156.177430487	0.139259684	0.960040721	0.002160691	156.173919320	0.139259394	0.199327291	0.001831440	-111.666907702	0.528855163
637777500.000000000	0.240301277	0.001809520	-124.750297858	0.434626527	0.950705448	0.002151863	151.147668332	0.139938356	0.950758409	0.002151972	151.141883040	0.139937705	0.239555396	0.001781870	-116.808857077	0.429424447
651943666.666667000	0.277836993	0.001760599	-128.911950243	0.366751840	0.940339343	0.002144548	146.207779167	0.140757231	0.940390424	0.002203216	146.206007477	0.144787400	0.277247696	0.001729668	-121.794978491	0.361221373
666109833.333333000	0.312612746	0.001724688	-133.176557151	0.320799784	0.929293915	0.002185930	141.384414550	0.145225157	0.929329451	0.002186002	141.381376954	0.145224469	0.312164323	0.001699578	-126.639286277	0.316804614
680276000.000000000	0.344390008	0.001693625	-137.469958174	0.287478706	0.917980751	0.002183445	136.669714057	0.146711022	0.918020940	0.002183542	136.667478029	0.146711256	0.344012749	0.001667481	-131.355883483	0.283590826
694442166.666667000	0.373037337	0.001646866	-141.744113904	0.259346434	0.906666119	0.002183360	132.065047319	0.148426522	0.906711824	0.002183467	132.064251432	0.148426132	0.372727358	0.001623295	-135.939816226	0.255967081
708608333.333333000	0.398741718	0.001609579	-145.983084755	0.238360521	0.895567431	0.002211909	127.564488323	0.152195224	0.895604919	0.002211965	127.561287803	0.152193302	0.398525370	0.001582524	-140.406758107	0.234584812
722774500.000000000	0.421576008	0.001573983	-150.176453939	0.221773208	0.884950007	0.002221191	123.168309582	0.154612419	0.884972776	0.002221211	123.164543400	0.154609030	0.421450238	0.001558972	-144.759662860	0.219931492
736940666.666667000	0.441628536	0.001528569	-154.298734109	0.206304250	0.875062535	0.002193224	118.863676358	0.154254805	0.875094533	0.002193275	118.860115953	0.154253320	0.441551288	0.001508371	-148.994449630	0.203809835
751106833.333333000	0.458898402	0.001464563	-158.348126237	0.191174424	0.865994684	0.002170138	114.646655159	0.154227821	0.866034299	0.002170230	114.643879595	0.154227065	0.458887238	0.001449281	-153.121798686	0.189361054
765273000.000000000	0.473508568	0.001441196	-162.346745079	0.183309755	0.857895546	0.002189728	110.505433920	0.157142587	0.857912620	0.002189757	110.502894683	0.157142013	0.473558346	0.001435255	-157.166876423	0.182781685
779439166.666667000	0.485451130	0.001462672	-166.291164472	0.182624621	0.850982842	0.002195888	106.438972826	0.158946943	0.851000691	0.002195916	106.436260934	0.158945945	0.485568613	0.001453800	-161.129703110	0.181734380
793605333.333333000	0.494740757	0.001458638	-170.197182330	0.179704435	0.845254161	0.002175331	102.423505373	0.158571921	0.845302353	0.002175452	102.420966322	0.158571382	0.494893548	0.001440115	-165.032249469	0.177453296
807771500.000000000	0.501545563	0.001430749	-174.068278057	0.174290966	0.840817302	0.002180731	98.456465354	0.159930174	0.840828998	0.002180757	98.454763695	0.159930264	0.501732681	0.001415326	-168.887616142	0.172477230
821937666.666667000	0.505995252	0.001422116	-177.928895522	0.172349182	0.837698328	0.002207733	94.515006965	0.162734114	0.837716902	0.002207772	94.511573342	0.162732418	0.506200113	0.001424413	-172.717629806	0.172685354
836103833.333333000	0.508152311	0.001423877	178.223194653	0.172121859	0.835778394	0.002195279	90.595702181	0.162282115	0.835800610	0.002195321	90.591913161	0.162282035	0.508373838	0.001432505	-176.515760860	0.173156953
850270000.000000000	0.508108326	0.001387393	174.382674871	0.167766535	0.835223455	0.002160829	86.682733729	0.160012170	0.835225258	0.002160868	86.678761124	0.160013410	0.508367734	0.001388760	179.710557681	0.167882325
864436166.666667000	0.505737558	0.001351174	170.538452906	0.164177223	0.835978716	0.002156258	82.764049762	0.159825917	0.835996209	0.002156333	82.761640430	0.159828353	0.506046245	0.001353901	175.950282770	0.164391522
878602333.333333000	0.500990619	0.001376275	166.675862038	0.168739718	0.838035497	0.002171816	78.826193714	0.160890353	0.838050321	0.002171881	78.822988085	0.160891694	0.501363466	0.001388987	172.197440107	0.170133796
892768500.000000000	0.493811140	0.001447636	162.781003740	0.179901927	0.841428487	0.002174264	74.863963718	0.160739043	0.841427719	0.002174291	74.859973245	0.160741167	0.494263900	0.001458529	168.443031913	0.181085022
906934666.666667000	0.484028790	0.001473078	158.835014669	0.186601065	0.846138086	0.002173759	70.860718019	0.160196127	0.846138378	0.002173799	70.857381550	0.160197932	0.484563458	0.001479449	164.668649711	0.187011738
921100833.333333000	0.471651152	0.001462663	154.828647369	0.189249471	0.852077799	0.002182844	66.798270179	0.160159984	0.852093107	0.002182884	66.796182054	0.160160628	0.472295223	0.001469716	160.862840938	0.189627671
935267000.000000000	0.456765481	0.001474169	150.749462223	0.196141060	0.859026281	0.002186872	62.669520481	0.159609073	0.859056085	0.002186924	62.663532658	0.159607511	0.457534903	0.001485281	157.015205622	0.196984053
949433166.666667000	0.439418783	0.001506375	146.586293552	0.207366583	0.866924764	0.002173920	58.465767447	0.157711060	0.866942516	0.002173954	58.461226434	0.157710413	0.440280775	0.001522393	153.120897560	0.208752200
963599333.333333000	0.419388106	0.001514169	142.343161489	0.216886598	0.875663842	0.002156203	54.176362405	0.155438867	0.875703274	0.002156327	54.173366355	0.155440608	0.420365412	0.001539561	149.194917698	0.219817093
977765500.000000000	0.396617930	0.001521297	138.024292162	0.228727299	0.884932208	0.002151796	49.793542689	0.154095157	0.884971230	0.002151913	49.790010874	0.154096387	0.397711729	0.001559320	145.250629952	0.233789003
991931666.666667000	0.371077032	0.001541703	133.622029694	0.247066507	0.894657112	0.002200190	45.312474902	0.156469024	0.894683886	0.002191517	45.310218119	0.155473006	0.372334984	0.001621780	141.302816948	0.258449707
1006097833.333330000	0.342483702	0.001645081	129.115092876	0.283977346	0.904670764	0.002156853	40.729566364	0.152374345	0.904719791	0.002156965	40.726007589	0.152373591	0.343946090	0.001676680	137.371014008	0.287892463
1020264000.000000000	0.310753907	0.001680900	124.512739638	0.317985230	0.914703889	0.002151462	36.037920525	0.151036299	0.914744524	0.002151549	36.033494249	0.151036068	0.312497722	0.001715809	133.509800558	0.322397973
1034430166.666670000	0.276201254	0.001698383	119.812351935	0.358938701	0.924395902	0.002149003	31.236822978	0.150005112	0.924440267	0.002149108	31.233712821	0.150005007	0.278334742	0.001739723	129.772190004	0.364777934
1048596333.333330000	0.239113314	0.001734515	115.016008683	0.421475267	0.933434710	0.002141747	26.332573692	0.148784958	0.933468512	0.002141821	26.328769343	0.148785104	0.241762440	0.001778055	126.271523109	0.427206587
1062762500.000000000	0.199650795	0.001772296	110.165346802	0.513684645	0.941509487	0.002123975	21.338530787	0.147053382	0.941536513	0.002124036	21.333493921	0.147053358	0.203012875	0.001815411	123.252643344	0.517443029
1076928666.666670000	0.158065740	0.001793760	105.308075224	0.653927170	0.948314502	0.002107424	16.254166399	0.145600099	0.948345071	0.002107492	16.249619091	0.145600139	0.162531458	0.001842851	121.178722963	0.653704406
1091094833.333330000	0.114813491	0.001815669	100.561232684	0.908635968	0.953546491	0.002103185	11.105052710	0.145120736	0.953577695	0.002103253	11.101148440	0.145120694	0.121135712	0.001859184	121.151753629	0.881989215
1105261000.000000000	0.070330721	0.001835892	96.290588818	1.496928448	0.957034848	0.002100770	5.909154450	0.144950885	0.957059721	0.002100825	5.905488984	0.144950916	0.080499352	0.001874785	126.492915306	1.335932540
1119427166.666670000	0.024951011	0.001843813	95.374631238	4.236549697	0.958610203	0.002097912	0.678879133	0.144957317	0.958628721	0.002097952	0.674907392	0.144957324	0.046666663	0.001883975	150.019452516	2.314785096
1133593333.333330000	0.021423449	0.001840313	-104.163281930	4.920992685	0.958198550	0.002096670	-4.562776800	0.145264132	0.958219632	0.002096715	-4.566582746	0.145264123	0.044910946	0.001880750	-154.896017248	2.400479645
1147759500.000000000	0.066931520	0.001829083	-104.087985160	1.567801250	0.955760779	0.002096777	-9.788849374	0.145858407	0.955809224	0.002096883	-9.793706622	0.145858376	0.077585288	0.001863774	-128.773712459	1.378604738
1161925666.666670000	0.111385514	0.001808360	-108.250814365	0.933141783	0.951463036	0.002101201	-14.984630572	0.146909674	0.951511216	0.002101306	-14.988339445	0.146909720	0.117951579	0.001839260	-122.698296243	0.896631155
1176091833.333330000	0.154423459	0.001784141	-112.953579719	0.666281733	0.945423590	0.002113371	-20.125043846	0.148634129	0.945469422	0.002113472	-20.127412092	0.148634231	0.159101550	0.001812343	-122.460288488	0.657176782
1190258000.000000000	0.195709247	0.001770036	-117.806430561	0.524886200	0.937877572	0.002082779	-25.195822019	0.147408704	0.937901883	0.002181772	-25.200615753	0.154189218	0.199310835	0.001787700	-124.429044089	0.520353383
1204424166.666670000	0.234672806	0.001735762	-122.644905833	0.431264972	0.929137965	0.002130487	-30.184934916	0.152165193	0.929193623	0.002130619	-30.188126453	0.152165509	0.237531044	0.001744307	-127.377491500	0.427967542
1218590333.333330000	0.271085321	0.001666334	-127.407106587	0.360030080	0.919514029	0.002124681	-35.082824961	0.153236499	0.919575672	0.002124822	-35.086317874	0.153236313	0.273404304	0.001677872	-130.803958038	0.359474614
1232756500.000000000	0.305100178	0.001625301	-132.108614837	0.314458088	0.909216905	0.002134863	-39.883149016	0.155459831	0.909275654	0.002134995	-39.887915128	0.155459431	0.307026806	0.001639249	-134.505352403	0.315342968
1246922666.666670000	0.336440050	0.001615047	-136.725779928	0.286581534	0.898623134	0.002147720	-44.569179602	0.157957737	0.898659419	0.002147800	-44.574917463	0.157957220	0.338074456	0.001622356	-138.332081888	0.286523492
